
**** 06/19/23 13:08:14 ****** PSpice Lite (19 March 2023) ***** ID# 10813 ****

 ** Circuit for extracting I(OUT)


 ****     CIRCUIT DESCRIPTION


******************************************************************************




Rfix DIE OUT 50
Vfix OUT 0 3.3
CComp DIE 0 5.23e-12
VDie DIE 0 PWL(
+ 0 3.3
+ 5.051e-11 3.3
+ 1e-10 3.3
+ 1.5e-10 3.3
+ 2e-10 3.3
+ 2.5e-10 3.3
+ 3e-10 3.3
+ 3.5e-10 3.3
+ 4e-10 3.292
+ 4.5e-10 3.199
+ 5.1e-10 3.128
+ 5.6e-10 3.071
+ 6.1e-10 3.023
+ 6.6e-10 2.982
+ 7.1e-10 2.946
+ 7.6e-10 2.916
+ 8.1e-10 2.889
+ 8.6e-10 2.866
+ 9.1e-10 2.846
+ 9.6e-10 2.828
+ 1.01e-09 2.813
+ 1.06e-09 2.799
+ 1.11e-09 2.787
+ 1.16e-09 2.777
+ 1.21e-09 2.768
+ 1.26e-09 2.76
+ 1.31e-09 2.753
+ 1.36e-09 2.747
+ 1.41e-09 2.741
+ 1.46e-09 2.737
+ 1.52e-09 2.733
+ 1.57e-09 2.729
+ 1.62e-09 2.724
+ 1.67e-09 2.721
+ 1.72e-09 2.72
+ 1.77e-09 2.718
+ 1.82e-09 2.716
+ 1.87e-09 2.714
+ 1.92e-09 2.712
+ 1.97e-09 2.71
+ 2.02e-09 2.708
+ 2.07e-09 2.706
+ 2.12e-09 2.705
+ 2.17e-09 2.704
+ 2.22e-09 2.703
+ 2.27e-09 2.703
+ 2.32e-09 2.702
+ 2.37e-09 2.701
+ 2.42e-09 2.701
+ 2.47e-09 2.7
+ 2.53e-09 2.7
+ 2.58e-09 2.699
+ 2.63e-09 2.699
+ 2.68e-09 2.699
+ 2.73e-09 2.699
+ 2.78e-09 2.699
+ 2.83e-09 2.699
+ 2.88e-09 2.698
+ 2.93e-09 2.698
+ 2.98e-09 2.698
+ 3.03e-09 2.698
+ 3.08e-09 2.698
+ 3.13e-09 2.698
+ 3.18e-09 2.698
+ 3.23e-09 2.698
+ 3.28e-09 2.698
+ 3.33e-09 2.698
+ 3.38e-09 2.698
+ 3.43e-09 2.697
+ 3.48e-09 2.697
+ 3.54e-09 2.697
+ 3.59e-09 2.697
+ 3.64e-09 2.697
+ 3.69e-09 2.697
+ 3.74e-09 2.697
)

.tran 0 3.74e-09
.print tran I(Vdie)
.options NOECHO

**** 06/19/23 13:08:14 ****** PSpice Lite (19 March 2023) ***** ID# 10813 ****

 ** Circuit for extracting I(OUT)


 ****     INITIAL TRANSIENT SOLUTION       TEMPERATURE =   27.000 DEG C


******************************************************************************



 NODE   VOLTAGE     NODE   VOLTAGE     NODE   VOLTAGE     NODE   VOLTAGE


(  DIE)    3.3000  (  OUT)    3.3000  




    VOLTAGE SOURCE CURRENTS
    NAME         CURRENT

    Vfix         0.000E+00
    VDie         0.000E+00

    TOTAL POWER DISSIPATION   0.00E+00  WATTS


**** 06/19/23 13:08:14 ****** PSpice Lite (19 March 2023) ***** ID# 10813 ****

 ** Circuit for extracting I(OUT)


 ****     TRANSIENT ANALYSIS               TEMPERATURE =   27.000 DEG C


******************************************************************************



  TIME        I(Vdie)     

   0.000E+00   0.000E+00
   3.740E-11  -3.202E-16
   7.480E-11  -4.298E-16
   1.122E-10  -6.895E-16
   1.496E-10  -8.871E-18
   1.870E-10  -1.903E-16
   2.244E-10   0.000E+00
   2.618E-10  -8.196E-16
   2.992E-10   1.641E-15
   3.366E-10  -3.339E-16
   3.740E-10   9.136E-04
   4.114E-10   1.031E-02
   4.488E-10   1.170E-02
   4.862E-10   9.066E-03
   5.236E-10   9.712E-03
   5.610E-10   1.023E-02
   5.984E-10   1.034E-02
   6.358E-10   1.025E-02
   6.732E-10   1.032E-02
   7.106E-10   1.072E-02
   7.480E-10   1.067E-02
   7.854E-10   1.078E-02
   8.228E-10   1.074E-02
   8.602E-10   1.107E-02
   8.976E-10   1.107E-02
   9.350E-10   1.114E-02
   9.724E-10   1.108E-02
   1.010E-09   1.131E-02
   1.047E-09   1.141E-02
   1.085E-09   1.139E-02
   1.122E-09   1.135E-02
   1.159E-09   1.150E-02
   1.197E-09   1.153E-02
   1.234E-09   1.155E-02
   1.272E-09   1.156E-02
   1.309E-09   1.167E-02
   1.346E-09   1.166E-02
   1.384E-09   1.174E-02
   1.421E-09   1.162E-02
   1.459E-09   1.168E-02
   1.496E-09   1.166E-02
   1.533E-09   1.178E-02
   1.571E-09   1.186E-02
   1.608E-09   1.202E-02
   1.646E-09   1.186E-02
   1.683E-09   1.169E-02
   1.720E-09   1.172E-02
   1.758E-09   1.184E-02
   1.795E-09   1.187E-02
   1.833E-09   1.190E-02
   1.870E-09   1.193E-02
   1.907E-09   1.196E-02
   1.945E-09   1.199E-02
   1.982E-09   1.202E-02
   2.020E-09   1.205E-02
   2.057E-09   1.208E-02
   2.094E-09   1.199E-02
   2.132E-09   1.201E-02
   2.169E-09   1.202E-02
   2.207E-09   1.204E-02
   2.244E-09   1.194E-02
   2.281E-09   1.205E-02
   2.319E-09   1.206E-02
   2.356E-09   1.208E-02
   2.394E-09   1.198E-02
   2.431E-09   1.209E-02
   2.468E-09   1.210E-02
   2.506E-09   1.200E-02
   2.543E-09   1.211E-02
   2.581E-09   1.211E-02
   2.618E-09   1.202E-02
   2.655E-09   1.202E-02
   2.693E-09   1.202E-02
   2.730E-09   1.202E-02
   2.768E-09   1.202E-02
   2.805E-09   1.202E-02
   2.842E-09   1.213E-02
   2.880E-09   1.214E-02
   2.917E-09   1.204E-02
   2.955E-09   1.204E-02
   2.992E-09   1.204E-02
   3.029E-09   1.204E-02
   3.067E-09   1.204E-02
   3.104E-09   1.204E-02
   3.142E-09   1.204E-02
   3.179E-09   1.204E-02
   3.216E-09   1.204E-02
   3.254E-09   1.204E-02
   3.291E-09   1.204E-02
   3.329E-09   1.204E-02
   3.366E-09   1.204E-02
   3.403E-09   1.215E-02
   3.441E-09   1.206E-02
   3.478E-09   1.206E-02
   3.516E-09   1.206E-02
   3.553E-09   1.206E-02
   3.590E-09   1.206E-02
   3.628E-09   1.206E-02
   3.665E-09   1.206E-02
   3.703E-09   1.206E-02
   3.740E-09   1.206E-02




          JOB CONCLUDED

**** 06/19/23 13:08:14 ****** PSpice Lite (19 March 2023) ***** ID# 10813 ****

 ** Circuit for extracting I(OUT)


 ****     JOB STATISTICS SUMMARY


******************************************************************************



  Total job time (using Solver 1)   =         .02
