
**** 06/19/23 13:45:51 ***** PSpice 22.1.0 (19 March 2023) **** ID# 0 ********

 ** Profile: "SCHEMATIC1-Trans"  [ C:\Jeonghyun\GIT\PMOD2BNC\22_1\IBIS_SIM-PSpiceFiles\SCHEMATIC1\Trans.sim ] 


 ****     CIRCUIT DESCRIPTION


******************************************************************************




** Creating circuit file "Trans.cir" 
** WARNING: THIS AUTOMATICALLY GENERATED FILE MAY BE OVERWRITTEN BY SUBSEQUENT SIMULATIONS

*Libraries: 
* Profile Libraries :
* Local Libraries :
* From [PSPICE NETLIST] section of C:\SPB_DATA\cdssetup\OrCAD_PSpice\22.1.0\PSpice.ini file:
.lib "C:\Jeonghyun\GIT\PMOD2BNC\IBIS\PSPICE\spartan7.lib" 
.lib "nom.lib" 

*Analysis directives: 
.TRAN  0 100ns 0 0.01n 
.OPTIONS ADVCONV
.PROBE64 V(alias(*)) I(alias(*)) W(alias(*)) D(alias(*)) NOISE(alias(*)) 
.INC "..\SCHEMATIC1.net" 



**** INCLUDING SCHEMATIC1.net ****
* source IBIS_SIM
.EXTERNAL OUTPUT OUTPUT
V_V1         N14567 0 3.3Vdc
R_R1         N14567 N14662  1k TC=0,0 
V_V2         N14608 0 3.3Vdc
R_R3         0 OUTPUT  1k TC=0,0 
X_U1         N14608 OUTPUT N14662 SPARTAN7_SSTL15_R_S_HR_TYP PARAMS: 
+  R_PIN=0.3345 L_PIN=4.35E-09 C_PIN=7.2E-13

**** RESUMING Trans.cir ****
.END

**** 06/19/23 13:45:51 ***** PSpice 22.1.0 (19 March 2023) **** ID# 0 ********

 ** Profile: "SCHEMATIC1-Trans"  [ C:\Jeonghyun\GIT\PMOD2BNC\22_1\IBIS_SIM-PSpiceFiles\SCHEMATIC1\Trans.sim ] 


 ****     Voltage Controlled Switch MODEL PARAMETERS


******************************************************************************




               X_U1.SMOD1      X_U1.SMOD2      
         RON    1.000000E+12    1.000000E-03 
        ROFF    1.000000E-03    1.000000E+12 
          VT     .6875           .8875       
          VH    0               0            
          TD    0               0            


**** 06/19/23 13:45:51 ***** PSpice 22.1.0 (19 March 2023) **** ID# 0 ********

 ** Profile: "SCHEMATIC1-Trans"  [ C:\Jeonghyun\GIT\PMOD2BNC\22_1\IBIS_SIM-PSpiceFiles\SCHEMATIC1\Trans.sim ] 


 ****     INITIAL TRANSIENT SOLUTION       TEMPERATURE =   27.000 DEG C


******************************************************************************



 NODE   VOLTAGE     NODE   VOLTAGE     NODE   VOLTAGE     NODE   VOLTAGE


(N14567)    3.3000 (N14608)    3.3000 (N14662)    3.3000 (OUTPUT)-67.10E-15     

(X_U1.N2)-11.29E-12                   (X_U1.DIE)-11.29E-12                      

(X_U1.VCC)    1.5000                  (X_U1.VEE)    0.0000                      

(X_U1.PULLUP)     .0344               (X_U1.PULLDOWN)-134.2E-12                 

(X_U1.FALLSTART)    0.0000            (X_U1.RISESTART)    0.0000                

(X_U1.TRANSITION)    1.5000           (X_U1.DELTARISING)    0.0000              

(X_U1.DELTAFALLING)    0.0000         (X_U1.PD_COEFF_RISING)    1.0018          

(X_U1.PU_COEFF_RISING) 241.0E-09      (X_U1.PD_COEFF_FALLING)-612.8E-06         

(X_U1.PU_COEFF_FALLING)     .9987     




    VOLTAGE SOURCE CURRENTS
    NAME         CURRENT

    V_V1         0.000E+00
    V_V2        -6.600E-12
    X_U1.V1      8.075E-09
    X_U1.V2     -8.043E-09

    TOTAL POWER DISSIPATION  -1.21E-08  WATTS



          JOB CONCLUDED

**** 06/19/23 13:45:51 ***** PSpice 22.1.0 (19 March 2023) **** ID# 0 ********

 ** Profile: "SCHEMATIC1-Trans"  [ C:\Jeonghyun\GIT\PMOD2BNC\22_1\IBIS_SIM-PSpiceFiles\SCHEMATIC1\Trans.sim ] 


 ****     JOB STATISTICS SUMMARY


******************************************************************************



  Total job time (using Solver 1)   =         .44
